
**** 05/01/25 03:13:21 ********* PSpice 9.2 (Mar 2000) ******** ID# 0 ********

 ** Profile: "SCHEMATIC1-Test"  [ c:\users\mohammad al-ahmad\desktop\workshop\orcad\me\d-flip\d-flip-schematic1-test.sim ] 


 ****     CIRCUIT DESCRIPTION


******************************************************************************




** Creating circuit file "d-flip-schematic1-test.sim.cir" 
** WARNING: THIS AUTOMATICALLY GENERATED FILE MAY BE OVERWRITTEN BY SUBSEQUENT SIMULATIONS

*Libraries: 
* Local Libraries :
* From [PSPICE NETLIST] section of C:\Program Files\Orcad\PSpice\PSpice.ini file:
.lib "nom.lib" 

*Analysis directives: 
.TRAN  0 1s 0 
.OPTIONS DIGINITSTATE= 0
.PROBE V(*) I(*) W(*) D(*) NOISE(*) 
.INC ".\d-flip-SCHEMATIC1.net" 



**** INCLUDING d-flip-SCHEMATIC1.net ****
* source D-FLIP
V_V4         N45274 0  
+PULSE 0 3.9 0 1u 1u 20ms 40ms
U_DSTM1         STIM(1,1) $G_DPWR $G_DGND N04872 IO_STM IO_LEVEL=0 
+ 0 0
+ +0 1
+REPEAT FOREVER
+ +50ms 0
+  +50ms 1
+ ENDREPEAT
X_U3A         VCC N07339 N07265 VCC N10025 N07339 $G_DPWR $G_DGND 7474 PARAMS:
+ IO_LEVEL=0 MNTYMXDLY=0
R_R35         V-12 N45613  8.2k  
V_V3         V-12 0 -12
R_R15         N45274 N45613  1.8k  
R_R2         N08578 N442430  1.8Meg  
R_R3         N10025 N442710  1.8Meg  
V_V2         VCC 0 5
R_R4         V-12 N442430  8.2Meg  
X_U2A         VCC N05075 N04872 VCC N08578 N05075 $G_DPWR $G_DGND 7474 PARAMS:
+ IO_LEVEL=0 MNTYMXDLY=0
R_R5         V-12 N442710  8.2Meg  
X_UPSA         N04872 N07265 $G_DPWR $G_DGND 7404 PARAMS:
+ IO_LEVEL=0 MNTYMXDLY=0

**** RESUMING d-flip-schematic1-test.sim.cir ****
.END


**** Generated AtoD and DtoA Interfaces ****

*
* Analog/Digital interface for node N08578
*
* Moving X_U2A.UFF1:Q1 from analog node N08578 to new digital node N08578$DtoA
X$N08578_DtoA1
+ N08578$DtoA
+ N08578
+ $G_DPWR
+ $G_DGND
+ DtoA_STD
+       PARAMS: DRVH=  96.4   DRVL= 104    CAPACITANCE=   0     
*
* Analog/Digital interface for node N10025
*
* Moving X_U3A.UFF1:Q1 from analog node N10025 to new digital node N10025$DtoA
X$N10025_DtoA1
+ N10025$DtoA
+ N10025
+ $G_DPWR
+ $G_DGND
+ DtoA_STD
+       PARAMS: DRVH=  96.4   DRVL= 104    CAPACITANCE=   0     
*
* Analog/Digital interface for node VCC
*
* Moving X_U2A.UFF1:CLRBAR from analog node VCC to new digital node VCC$AtoD
X$VCC_AtoD1
+ VCC
+ VCC$AtoD
+ $G_DPWR
+ $G_DGND
+ AtoD_STD
+       PARAMS: CAPACITANCE=   0     
* Moving X_U2A.UFF1:PREBAR from analog node VCC to new digital node VCC$AtoD2
X$VCC_AtoD2
+ VCC
+ VCC$AtoD2
+ $G_DPWR
+ $G_DGND
+ AtoD_STD
+       PARAMS: CAPACITANCE=   0     
* Moving X_U3A.UFF1:CLRBAR from analog node VCC to new digital node VCC$AtoD3
X$VCC_AtoD3
+ VCC
+ VCC$AtoD3
+ $G_DPWR
+ $G_DGND
+ AtoD_STD
+       PARAMS: CAPACITANCE=   0     
* Moving X_U3A.UFF1:PREBAR from analog node VCC to new digital node VCC$AtoD4
X$VCC_AtoD4
+ VCC
+ VCC$AtoD4
+ $G_DPWR
+ $G_DGND
+ AtoD_STD
+       PARAMS: CAPACITANCE=   0     
*
* Analog/Digital interface power supply subcircuits
*

X$DIGIFPWR 0 DIGIFPWR

**** 05/01/25 03:13:21 ********* PSpice 9.2 (Mar 2000) ******** ID# 0 ********

 ** Profile: "SCHEMATIC1-Test"  [ c:\users\mohammad al-ahmad\desktop\workshop\orcad\me\d-flip\d-flip-schematic1-test.sim ] 


 ****     Diode MODEL PARAMETERS


******************************************************************************




               D74CLMP         D74             
          IS    1.000000E-15  100.000000E-18 
          RS    2              25            
         CJO    2.000000E-12    2.000000E-12 


**** 05/01/25 03:13:21 ********* PSpice 9.2 (Mar 2000) ******** ID# 0 ********

 ** Profile: "SCHEMATIC1-Test"  [ c:\users\mohammad al-ahmad\desktop\workshop\orcad\me\d-flip\d-flip-schematic1-test.sim ] 


 ****     BJT MODEL PARAMETERS


******************************************************************************




               Q74             
               NPN             
          IS  100.000000E-18 
          BF   49            
          NF    1            
         ISE  100.000000E-18 
          BR     .03         
          NR    1            
         ISC  400.000000E-18 
          RB   50            
          RC   20            
         CJE    1.000000E-12 
         VJE     .9          
         MJE     .5          
         CJC  500.000000E-15 
         VJC     .8          
         CJS    3.000000E-12 
         VJS     .7          
         MJS     .33         
          TF  200.000000E-12 
          TR   10.000000E-09 
          CN    2.42         
           D     .87         


**** 05/01/25 03:13:21 ********* PSpice 9.2 (Mar 2000) ******** ID# 0 ********

 ** Profile: "SCHEMATIC1-Test"  [ c:\users\mohammad al-ahmad\desktop\workshop\orcad\me\d-flip\d-flip-schematic1-test.sim ] 


 ****     Digital Input MODEL PARAMETERS


******************************************************************************




               DIN74           
        FILE DSO_DTOA        
      FORMAT    6            
    TIMESTEP  100.000000E-12 
      S0NAME 0               
       S0TSW    3.500000E-09 
       S0RLO    7.13         
       S0RHI  389            
      S1NAME 1               
       S1TSW    5.500000E-09 
       S1RLO  467            
       S1RHI  200            
      S2NAME X               
       S2TSW    3.500000E-09 
       S2RLO   42.9          
       S2RHI  116            
      S3NAME R               
       S3TSW    3.500000E-09 
       S3RLO   42.9          
       S3RHI  116            
      S4NAME F               
       S4TSW    3.500000E-09 
       S4RLO   42.9          
       S4RHI  116            
      S5NAME Z               
       S5TSW    3.500000E-09 
       S5RLO  200.000000E+03 
       S5RHI  200.000000E+03 


**** 05/01/25 03:13:21 ********* PSpice 9.2 (Mar 2000) ******** ID# 0 ********

 ** Profile: "SCHEMATIC1-Test"  [ c:\users\mohammad al-ahmad\desktop\workshop\orcad\me\d-flip\d-flip-schematic1-test.sim ] 


 ****     Digital Output MODEL PARAMETERS


******************************************************************************




               DO74            
        FILE DSO_ATOD        
      FORMAT    6            
     CHGONLY    1            
    TIMESTEP  100.000000E-12 
      S0NAME X               
       S0VHI    2            
       S0VLO     .8          
      S1NAME 0               
       S1VHI     .8          
       S1VLO   -1.5          
      S2NAME R               
       S2VHI    1.4          
       S2VLO     .8          
      S3NAME R               
       S3VHI    2            
       S3VLO    1.3          
      S4NAME X               
       S4VHI    2            
       S4VLO     .8          
      S5NAME 1               
       S5VHI    7            
       S5VLO    2            
      S6NAME F               
       S6VHI    2            
       S6VLO    1.3          
      S7NAME F               
       S7VHI    1.4          
       S7VLO     .8          


**** 05/01/25 03:13:21 ********* PSpice 9.2 (Mar 2000) ******** ID# 0 ********

 ** Profile: "SCHEMATIC1-Test"  [ c:\users\mohammad al-ahmad\desktop\workshop\orcad\me\d-flip\d-flip-schematic1-test.sim ] 


 ****     Digital Gate MODEL PARAMETERS


******************************************************************************




               D_04            
      TPLHMN    4.800000E-09 
      TPLHTY   12.000000E-09 
      TPLHMX   22.000000E-09 
      TPHLMN    3.200000E-09 
      TPHLTY    8.000000E-09 
      TPHLMX   15.000000E-09 


**** 05/01/25 03:13:21 ********* PSpice 9.2 (Mar 2000) ******** ID# 0 ********

 ** Profile: "SCHEMATIC1-Test"  [ c:\users\mohammad al-ahmad\desktop\workshop\orcad\me\d-flip\d-flip-schematic1-test.sim ] 


 ****     Digital Edge Triggered FF MODEL PARAMETERS


******************************************************************************




               D_74            
  TPCLKQLHMN    5.600000E-09 
  TPCLKQLHTY   14.000000E-09 
  TPCLKQLHMX   25.000000E-09 
  TPCLKQHLMN    8.000000E-09 
  TPCLKQHLTY   20.000000E-09 
  TPCLKQHLMX   40.000000E-09 
   TPPCQLHMN    6.250000E-09 
   TPPCQLHTY   15.625000E-09 
   TPPCQLHMX   25.000000E-09 
   TPPCQHLMN   10.000000E-09 
   TPPCQHLTY   25.000000E-09 
   TPPCQHLMX   40.000000E-09 
    TWCLKLMN   37.000000E-09 
    TWCLKLTY   37.000000E-09 
    TWCLKLMX   37.000000E-09 
    TWCLKHMN   30.000000E-09 
    TWCLKHTY   30.000000E-09 
    TWCLKHMX   30.000000E-09 
     TWPCLMN   30.000000E-09 
     TWPCLTY   30.000000E-09 
     TWPCLMX   30.000000E-09 
   TSUDCLKMN   20.000000E-09 
   TSUDCLKTY   20.000000E-09 
   TSUDCLKMX   20.000000E-09 
 TSUPCCLKHMN    0            
 TSUPCCLKHTY    0            
 TSUPCCLKHMX    0            
    THDCLKMN    5.000000E-09 
    THDCLKTY    5.000000E-09 
    THDCLKMX    5.000000E-09 
  TSUCECLKMN    0            
  TSUCECLKTY    0            
  TSUCECLKMX    0            
   THCECLKMN    0            
   THCECLKTY    0            
   THCECLKMX    0            


**** 05/01/25 03:13:21 ********* PSpice 9.2 (Mar 2000) ******** ID# 0 ********

 ** Profile: "SCHEMATIC1-Test"  [ c:\users\mohammad al-ahmad\desktop\workshop\orcad\me\d-flip\d-flip-schematic1-test.sim ] 


 ****     Digital IO  MODEL PARAMETERS


******************************************************************************




               IO_STM          IO_STD          
        DRVL    0             104            
        DRVH    0              96.4          
       AtoD1                 AtoD_STD        
       AtoD2                 AtoD_STD_NX     
       AtoD3                 AtoD_STD        
       AtoD4                 AtoD_STD_NX     
       DtoA1 DtoA_STM        DtoA_STD        
       DtoA2 DtoA_STM        DtoA_STD        
       DtoA3 DtoA_STM        DtoA_STD        
       DtoA4 DtoA_STM        DtoA_STD        
      TSWHL1                    1.511000E-09 
      TSWHL2                    1.487000E-09 
      TSWHL3                    1.511000E-09 
      TSWHL4                    1.487000E-09 
      TSWLH1                    3.517000E-09 
      TSWLH2                    3.564000E-09 
      TSWLH3                    3.517000E-09 
      TSWLH4                    3.564000E-09 
       TPWRT  100.000000E+03  100.000000E+03 


**** 05/01/25 03:13:21 ********* PSpice 9.2 (Mar 2000) ******** ID# 0 ********

 ** Profile: "SCHEMATIC1-Test"  [ c:\users\mohammad al-ahmad\desktop\workshop\orcad\me\d-flip\d-flip-schematic1-test.sim ] 


 ****     INITIAL TRANSIENT SOLUTION       TEMPERATURE =   27.000 DEG C


******************************************************************************



 NODE   VOLTAGE     NODE   VOLTAGE     NODE   VOLTAGE     NODE   VOLTAGE


(  VCC)    5.0000  ( V-12)  -12.0000  (N08578)     .0900 (N10025)     .0900     

(N45274)    0.0000 (N45613)   -2.1600 ($G_DGND)    0.0000                       

($G_DPWR)    5.0000                   (N442430)   -2.0862                       

(N442710)   -2.0862                   (X$VCC_AtoD1.1)    1.5648                 

(X$VCC_AtoD1.2)     .7824             (X$VCC_AtoD1.3)    2.2862                 

(X$VCC_AtoD2.1)    1.5648             (X$VCC_AtoD2.2)     .7824                 

(X$VCC_AtoD2.3)    2.2862             (X$VCC_AtoD3.1)    1.5648                 

(X$VCC_AtoD3.2)     .7824             (X$VCC_AtoD3.3)    2.2862                 

(X$VCC_AtoD4.1)    1.5648             (X$VCC_AtoD4.2)     .7824                 

(X$VCC_AtoD4.3)    2.2862             



 DGTL NODE : STATE  DGTL NODE : STATE  DGTL NODE : STATE  DGTL NODE : STATE


(N08578$DtoA) : 0  (  N05075) : 1     (VCC$AtoD2) : 1    (  N07339) : 1         

(VCC$AtoD) : 1     (  N07265) : 0     (VCC$AtoD3) : 1    (  N04872) : 1         

(N10025$DtoA) : 0  (VCC$AtoD4) : 1    




    VOLTAGE SOURCE CURRENTS
    NAME         CURRENT

    V_V4        -1.200E-03
    V_V3         1.202E-03
    V_V2        -8.141E-05
    X$DIGIFPWR.VDPWR  -2.796E-02
    X$DIGIFPWR.VDGND   7.400E-05

    TOTAL POWER DISSIPATION   1.55E-01  WATTS



          JOB CONCLUDED

          TOTAL JOB TIME             .38
